
T064C 000:069 SEGGER J-Link V4.62 Log File (0012ms, 0081ms total)
T064C 000:069 DLL Compiled: Jan 25 2013 15:19:47 (0012ms, 0081ms total)
T064C 000:069 Logging started @ 2014-06-21 20:14 (0012ms, 0081ms total)
T064C 000:081 JLINK_SetWarnOutHandler(...) (0000ms, 0081ms total)
T064C 000:081 JLINK_OpenEx(...)
Firmware: J-Link ARM V8 compiled Jan 31 2018 18:34:52
Hardware: V8.00
S/N: 20080643
Feature(s): RDI,FlashDL,FlashBP,JFlash,GDBFull  returns O.K. (0027ms, 0108ms total)
T064C 000:108 JLINK_SetErrorOutHandler(...) (0000ms, 0108ms total)
T064C 000:108 JLINK_ExecCommand("ProjectFile = "C:\Users\huhaihua\Desktop\freertos v2.0\JLinkSettings.ini"", ...)  returns 0x00 (0000ms, 0108ms total)
T064C 000:109 JLINK_ExecCommand("Device = STM32F103CB", ...)
                JLINK_ExecCommand("map ram 0x20000000 - 0x20004FFF", ...)  returns 0x00 (0000ms, 0000ms total)
                JLINK_AddMirrorAreaEx(Addr = 0x00000000, Size = 0x00000000) (0000ms, 0000ms total)
              Device "STM32F103CB" selected (128 KB flash, 20 KB RAM).  returns 0x00 (0000ms, 0108ms total)
T064C 000:109 JLINK_ExecCommand("DisableConnectionTimeout", ...)  returns 0x00 (0000ms, 0108ms total)
T064C 000:109 JLINK_TIF_Select(JLINKARM_TIF_SWD)  returns 0x00 (0007ms, 0115ms total)
T064C 000:116 JLINK_SetSpeed(2000) (0002ms, 0117ms total)
T064C 000:118 JLINK_GetHardwareVersion()  returns 0x13880 (0000ms, 0117ms total)
T064C 000:118 JLINK_GetDLLVersion()  returns 46200 (0000ms, 0117ms total)
T064C 000:118 JLINK_GetFirmwareString(...) (0000ms, 0117ms total)
T064C 000:118 JLINK_GetDLLVersion()  returns 46200 (0000ms, 0117ms total)
T064C 000:118 JLINK_GetCompileDateTime() (0000ms, 0117ms total)
T064C 000:119 JLINK_GetFirmwareString(...) (0000ms, 0117ms total)
T064C 000:119 JLINK_GetHardwareVersion()  returns 0x13880 (0000ms, 0117ms total)
T064C 000:119 JLINK_GetId() >0x108 TIF>Found SWD-DP with ID 0x1BA01477 >0x0D TIF> >0x28 TIF> >0x0D TIF> >0x28 TIF> >0x0D TIF> >0x21 TIF> >0x0D TIF> >0x28 TIF> >0x0D TIF> >0x28 TIF> >0x0D TIF> >0x28 TIF> >0x0D TIF> >0x21 TIF> >0x0D TIF> >0x21 TIF> >0x0D TIF> >0x28 TIF> >0x0D TIF> >0x21 TIF> >0x0D TIF> >0x21 TIF> >0x0D TIF> >0x28 TIF> >0x0D TIF> >0x28 TIF> >0x108 TIF>Found SWD-DP with ID 0x1BA01477 >0x0D TIF> >0x21 TIF> >0x0D TIF> >0x28 TIF> >0x0D TIF> >0x28 TIF> >0x0D TIF> >0x21 TIF> >0x0D TIF> >0x21 TIF>
 >0x0D TIF> >0x28 TIF> >0x0D TIF> >0x21 TIF> >0x0D TIF> >0x21 TIF> >0x0D TIF> >0x21 TIF> >0x0D TIF> >0x21 TIF> >0x0D TIF> >0x28 TIF> >0x0D TIF> >0x21 TIF> >0x0D TIF> >0x28 TIF> >0x0D TIF> >0x28 TIF> >0x0D TIF> >0x21 TIF> >0x0D TIF> >0x21 TIF> >0x0D TIF> >0x28 TIF> >0x0D TIF> >0x21 TIF> >0x0D TIF> >0x21 TIF> >0x0D TIF> >0x28 TIF> >0x0D TIF> >0x28 TIF> >0x0D TIF> >0x28 TIF> >0x0D TIF> >0x21 TIF> >0x0D TIF> >0x21 TIF> >0x0D TIF> >0x28 TIF> >0x0D TIF> >0x28 TIF> >0x0D TIF> >0x28 TIF> >0x0D TIF> >0x28 TIF>
 >0x0D TIF> >0x28 TIF> >0x0D TIF> >0x21 TIF> >0x0D TIF> >0x21 TIF> >0x0D TIF> >0x21 TIF>TPIU fitted. >0x0D TIF> >0x28 TIF> >0x0D TIF> >0x21 TIF> >0x0D TIF> >0x21 TIF> >0x0D TIF> >0x28 TIF> >0x0D TIF> >0x21 TIF> >0x0D TIF> >0x21 TIF>FPUnit: 6 code (BP) slots and 2 literal slots >0x0D TIF> >0x28 TIF> >0x0D TIF> >0x21 TIF> >0x0D TIF> >0x21 TIF> >0x0D TIF> >0x28 TIF> >0x0D TIF> >0x28 TIF> >0x0D TIF> >0x28 TIF> >0x0D TIF> >0x21 TIF> >0x0D TIF> >0x21 TIF> >0x0D TIF> >0x28 TIF> >0x0D TIF> >0x21 TIF> >0x0D TIF>
 >0x21 TIF> >0x0D TIF> >0x28 TIF> >0x0D TIF> >0x21 TIF> >0x0D TIF> >0x21 TIF>Found Cortex-M3 r1p1, Little endian. >0x0D TIF> >0x28 TIF> >0x0D TIF> >0x21 TIF>  returns 0x1BA01477 (0147ms, 0264ms total)
T064C 000:266 JLINK_GetDeviceFamily()  returns 3 (0000ms, 0264ms total)
T064C 000:266 JLINK_ReadMem (0xE00FFFF0, 0x0010 Bytes, ...) -- CPU is running -- CPU_ReadMem(16 bytes @ 0xE00FFFF0) -- Data:  0D 00 00 00 10 00 00 00 05 00 00 00 B1 00 00 00  returns 0x00 (0003ms, 0267ms total)
T064C 000:269 JLINK_ReadMem (0xE00FFFD0, 0x0020 Bytes, ...) -- CPU is running -- CPU_ReadMem(32 bytes @ 0xE00FFFD0) -- Data:  00 00 00 00 00 00 00 00 00 00 00 00 00 00 00 00 ...  returns 0x00 (0002ms, 0269ms total)
T064C 000:271 JLINK_ReadMem (0xE00FF000, 0x0018 Bytes, ...) -- CPU is running -- CPU_ReadMem(24 bytes @ 0xE00FF000) -- Data:  03 F0 F0 FF 03 20 F0 FF 03 30 F0 FF 03 10 F0 FF ...  returns 0x00 (0002ms, 0271ms total)
T064C 000:273 JLINK_ReadMemU32(0xE000ED00, 0x0001 Items, ...) -- CPU is running -- CPU_ReadMem(4 bytes @ 0xE000ED00) -- Data:  31 C2 1F 41  returns 0x01 (0001ms, 0272ms total)
T064C 000:274 JLINK_SetResetType(JLINKARM_RESET_TYPE_NORMAL)  returns JLINKARM_RESET_TYPE_NORMAL (0000ms, 0272ms total)
T064C 000:274 JLINK_Reset() -- CPU_WriteMem(4 bytes @ 0xE0002000) (0017ms, 0289ms total)
T064C 000:291 JLINK_ReadReg(R15)  returns 0x08001D38 (0000ms, 0289ms total)
T064C 000:291 JLINK_ReadReg(XPSR)  returns 0x01000000 (0000ms, 0289ms total)
T064C 000:291 JLINK_Halt()  returns 0x00 (0000ms, 0289ms total)
T064C 000:291 JLINK_IsHalted()  returns TRUE (0000ms, 0289ms total)
T064C 000:291 JLINK_ReadMemU32(0xE000EDF0, 0x0001 Items, ...) -- CPU_ReadMem(4 bytes @ 0xE000EDF0) -- Data:  03 00 03 00  returns 0x01 (0002ms, 0291ms total)
T064C 000:293 JLINK_WriteU32(0xE000EDF0, 0xA05F0003) -- CPU_WriteMem(4 bytes @ 0xE000EDF0)  returns 0x00 (0001ms, 0292ms total)
T064C 000:294 JLINK_WriteU32(0xE000EDFC, 0x01000000) -- CPU_WriteMem(4 bytes @ 0xE000EDFC)  returns 0x00 (0001ms, 0293ms total)
T064C 000:295 JLINK_GetHWStatus(...)  returns 0x00 (0001ms, 0294ms total)
T064C 000:296 JLINK_GetNumBPUnits(Type = 0xFFFFFF00)  returns 0x06 (0000ms, 0294ms total)
T064C 000:296 JLINK_GetNumBPUnits(Type = 0xF0)  returns 0x2000 (0000ms, 0294ms total)
T064C 000:296 JLINK_GetNumWPUnits()  returns 0x04 (0000ms, 0294ms total)
T064C 000:297 JLINK_GetSpeed()  returns 0x7D0 (0000ms, 0294ms total)
T064C 000:297 JLINK_ReadMemU32(0xE000E004, 0x0001 Items, ...) -- CPU_ReadMem(4 bytes @ 0xE000E004) -- Data:  01 00 00 00  returns 0x01 (0002ms, 0296ms total)
T064C 000:299 JLINK_ReadMemU32(0xE000E004, 0x0001 Items, ...) -- CPU_ReadMem(4 bytes @ 0xE000E004) -- Data:  01 00 00 00  returns 0x01 (0002ms, 0298ms total)
T064C 000:301 JLINK_WriteMem(0xE0001000, 0x001C Bytes, ...) -- Data:  01 00 00 00 00 00 00 00 00 00 00 00 00 00 00 00 ... -- CPU_WriteMem(28 bytes @ 0xE0001000)  returns 0x1C (0002ms, 0300ms total)
T064C 000:303 JLINK_ReadMem (0xE0001000, 0x001C Bytes, ...) -- CPU_ReadMem(28 bytes @ 0xE0001000) -- Data:  01 00 00 40 00 00 00 00 00 00 00 00 00 00 00 00 ...  returns 0x00 (0002ms, 0302ms total)
T064C 000:305 JLINK_ReadReg(R15)  returns 0x08001D38 (0000ms, 0302ms total)
T064C 000:305 JLINK_ReadReg(XPSR)  returns 0x01000000 (0000ms, 0302ms total)
T064C 000:527 JLINK_SetResetType(JLINKARM_RESET_TYPE_NORMAL)  returns JLINKARM_RESET_TYPE_NORMAL (0000ms, 0302ms total)
T064C 000:527 JLINK_Reset() -- CPU_WriteMem(4 bytes @ 0xE0002000) (0021ms, 0323ms total)
T064C 000:548 JLINK_ReadReg(R15)  returns 0x08001D38 (0000ms, 0323ms total)
T064C 000:548 JLINK_ReadReg(XPSR)  returns 0x01000000 (0000ms, 0323ms total)
T064C 000:550 JLINK_ReadMem (0x08001D38, 0x003C Bytes, ...) -- CPU_ReadMem(128 bytes @ 0x08001D00) -- Updating C cache (128 bytes @ 0x08001D00) -- Read from C cache (60 bytes @ 0x08001D38) -- Data:  08 48 00 47 FE E7 FE E7 FE E7 FE E7 FE E7 FE E7 ...  returns 0x00 (0003ms, 0326ms total)
T064C 001:026 JLINK_ReadMem (0x40012C00, 0x002C Bytes, ...) -- CPU_ReadMem(44 bytes @ 0x40012C00) -- Data:  00 00 00 00 00 00 00 00 00 00 00 00 00 00 00 00 ...  returns 0x00 (0003ms, 0329ms total)
T064C 001:029 JLINK_ReadMem (0x40012C2C, 0x0004 Bytes, ...) -- CPU_ReadMem(4 bytes @ 0x40012C2C) -- Data:  00 00 00 00  returns 0x00 (0002ms, 0331ms total)
T064C 001:031 JLINK_ReadMem (0x40012C30, 0x0004 Bytes, ...) -- CPU_ReadMem(4 bytes @ 0x40012C30) -- Data:  00 00 00 00  returns 0x00 (0003ms, 0334ms total)
T064C 001:034 JLINK_ReadMem (0x40012C34, 0x000C Bytes, ...) -- CPU_ReadMem(12 bytes @ 0x40012C34) -- Data:  00 00 00 00 00 00 00 00 00 00 00 00  returns 0x00 (0002ms, 0336ms total)
T064C 001:036 JLINK_ReadMem (0x40012C40, 0x0004 Bytes, ...) -- CPU_ReadMem(4 bytes @ 0x40012C40) -- Data:  00 00 00 00  returns 0x00 (0001ms, 0337ms total)
T064C 001:037 JLINK_ReadMem (0x40012C44, 0x0004 Bytes, ...) -- CPU_ReadMem(4 bytes @ 0x40012C44) -- Data:  00 00 00 00  returns 0x00 (0001ms, 0338ms total)
T064C 001:038 JLINK_ReadMem (0x40012C48, 0x0004 Bytes, ...) -- CPU_ReadMem(4 bytes @ 0x40012C48) -- Data:  00 00 00 00  returns 0x00 (0001ms, 0339ms total)
T064C 001:039 JLINK_ReadMem (0x40012C4C, 0x0004 Bytes, ...) -- CPU_ReadMem(4 bytes @ 0x40012C4C) -- Data:  00 00 00 00  returns 0x00 (0002ms, 0341ms total)
T064C 002:317 JLINK_ReadMem (0x080037FC, 0x003C Bytes, ...) -- CPU_ReadMem(128 bytes @ 0x080037C0) -- Updating C cache (128 bytes @ 0x080037C0) -- Read from C cache (60 bytes @ 0x080037FC) -- Data:  23 E0 FF F7 47 FE 1F 48 00 68 08 B9 01 20 00 E0 ...  returns 0x00 (0005ms, 0346ms total)
T064C 002:420 JLINK_ReadMem (0x20000020, 0x0004 Bytes, ...) -- CPU_ReadMem(64 bytes @ 0x20000000) -- Updating C cache (64 bytes @ 0x20000000) -- Read from C cache (4 bytes @ 0x20000020) -- Data:  00 00 00 00  returns 0x00 (0002ms, 0348ms total)
T064C 002:423 JLINK_ReadMem (0x20000024, 0x0004 Bytes, ...) -- Read from C cache (4 bytes @ 0x20000024) -- Data:  0D 9A AD 3F  returns 0x00 (0000ms, 0348ms total)
T064C 002:424 JLINK_ReadMem (0x20000028, 0x0004 Bytes, ...) -- Read from C cache (4 bytes @ 0x20000028) -- Data:  C0 9F D5 3F  returns 0x00 (0000ms, 0348ms total)
T064C 002:424 JLINK_ReadMem (0x2000002C, 0x0004 Bytes, ...) -- Read from C cache (4 bytes @ 0x2000002C) -- Data:  5A D8 B8 3F  returns 0x00 (0000ms, 0348ms total)
T064C 002:425 JLINK_ReadMem (0x20000044, 0x0004 Bytes, ...) -- CPU_ReadMem(64 bytes @ 0x20000040) -- Updating C cache (64 bytes @ 0x20000040) -- Read from C cache (4 bytes @ 0x20000044) -- Data:  00 00 00 00  returns 0x00 (0002ms, 0350ms total)
T064C 002:428 JLINK_ReadMem (0x40012C00, 0x002C Bytes, ...) -- CPU_ReadMem(44 bytes @ 0x40012C00) -- Data:  00 00 00 00 00 00 00 00 00 00 00 00 00 00 00 00 ...  returns 0x00 (0002ms, 0352ms total)
T064C 002:430 JLINK_ReadMem (0x40012C2C, 0x0004 Bytes, ...) -- CPU_ReadMem(4 bytes @ 0x40012C2C) -- Data:  00 00 00 00  returns 0x00 (0001ms, 0353ms total)
T064C 002:431 JLINK_ReadMem (0x40012C30, 0x0004 Bytes, ...) -- CPU_ReadMem(4 bytes @ 0x40012C30) -- Data:  00 00 00 00  returns 0x00 (0001ms, 0354ms total)
T064C 002:432 JLINK_ReadMem (0x40012C34, 0x000C Bytes, ...) -- CPU_ReadMem(12 bytes @ 0x40012C34) -- Data:  00 00 00 00 00 00 00 00 00 00 00 00  returns 0x00 (0002ms, 0356ms total)
T064C 002:434 JLINK_ReadMem (0x40012C40, 0x0004 Bytes, ...) -- CPU_ReadMem(4 bytes @ 0x40012C40) -- Data:  00 00 00 00  returns 0x00 (0002ms, 0358ms total)
T064C 002:436 JLINK_ReadMem (0x40012C44, 0x0004 Bytes, ...) -- CPU_ReadMem(4 bytes @ 0x40012C44) -- Data:  00 00 00 00  returns 0x00 (0002ms, 0360ms total)
T064C 002:438 JLINK_ReadMem (0x40012C48, 0x0004 Bytes, ...) -- CPU_ReadMem(4 bytes @ 0x40012C48) -- Data:  00 00 00 00  returns 0x00 (0002ms, 0362ms total)
T064C 002:440 JLINK_ReadMem (0x40012C4C, 0x0004 Bytes, ...) -- CPU_ReadMem(4 bytes @ 0x40012C4C) -- Data:  00 00 00 00  returns 0x00 (0001ms, 0363ms total)
T064C 002:441 JLINK_ReadMem (0x08001C38, 0x003C Bytes, ...) -- CPU_ReadMem(128 bytes @ 0x08001C00) -- Updating C cache (128 bytes @ 0x08001C00) -- Read from C cache (60 bytes @ 0x08001C38) -- Data:  02 83 02 8B 0A 43 02 83 70 47 21 B1 82 8A 42 F0 ...  returns 0x00 (0003ms, 0366ms total)
T064C 002:444 JLINK_ReadMem (0x08001C74, 0x003C Bytes, ...) -- CPU_ReadMem(64 bytes @ 0x08001C80) -- Updating C cache (64 bytes @ 0x08001C80) -- Read from C cache (60 bytes @ 0x08001C74) -- Data:  82 8A 42 F0 08 02 82 82 04 E0 82 8A 4F F6 F7 73 ...  returns 0x00 (0002ms, 0368ms total)
T064C 002:446 JLINK_ReadMem (0x08001CB0, 0x003C Bytes, ...) -- CPU_ReadMem(64 bytes @ 0x08001CC0) -- Updating C cache (64 bytes @ 0x08001CC0) -- Read from C cache (60 bytes @ 0x08001CB0) -- Data:  82 82 70 47 02 46 00 20 13 88 0B 42 01 D0 01 20 ...  returns 0x00 (0002ms, 0370ms total)
T064C 002:448 JLINK_ReadMem (0x08001CEC, 0x003C Bytes, ...) -- Read from C cache (60 bytes @ 0x08001CEC) -- Data:  96 89 31 40 06 E0 02 2D 02 D1 16 8A 31 40 01 E0 ...  returns 0x00 (0000ms, 0370ms total)
T064C 002:448 JLINK_ReadMem (0x08001D28, 0x003C Bytes, ...) -- Read from C cache (60 bytes @ 0x08001D28) -- Data:  04 80 10 BD 00 4C 00 40 00 BC FF BF 00 38 01 40 ...  returns 0x00 (0000ms, 0370ms total)
T0FCC 004:759 JLINK_SetBPEx(Addr = 0x08001F6C, Type = 0xFFFFFFF2)  returns 0x00000001 (0003ms, 0373ms total)
T0FCC 004:762 JLINK_Go() -- CPU_WriteMem(4 bytes @ 0xE0002008) -- CPU_WriteMem(4 bytes @ 0xE000200C) -- CPU_WriteMem(4 bytes @ 0xE0002010) -- CPU_WriteMem(4 bytes @ 0xE0002014) -- CPU_WriteMem(4 bytes @ 0xE0002018) -- CPU_WriteMem(4 bytes @ 0xE000201C) (0017ms, 0390ms total)
T0FCC 004:879 JLINK_IsHalted()  returns FALSE (0002ms, 0392ms total)
T0FCC 004:981 JLINK_IsHalted()  returns FALSE (0002ms, 0392ms total)
T0FCC 005:083 JLINK_IsHalted()  returns FALSE (0002ms, 0392ms total)
T0FCC 005:185 JLINK_IsHalted()  returns FALSE (0003ms, 0393ms total)
T0FCC 005:288 JLINK_IsHalted()  returns FALSE (0001ms, 0391ms total)
T0FCC 005:389 JLINK_ReadMemU32(0xE0001004, 0x0001 Items, ...) -- CPU is running -- CPU_ReadMem(4 bytes @ 0xE0001004) -- Data:  00 00 00 00  returns 0x01 (0001ms, 0391ms total)
T064C 005:391 JLINK_ReadMem (0x20000020, 0x0004 Bytes, ...) -- CPU is running -- CPU_ReadMem(4 bytes @ 0x20000020) -- Data:  00 00 00 00  returns 0x00 (0002ms, 0393ms total)
T064C 005:393 JLINK_ReadMem (0x20000024, 0x0004 Bytes, ...) -- CPU is running -- CPU_ReadMem(4 bytes @ 0x20000024) -- Data:  0D 9A AD 3F  returns 0x00 (0002ms, 0395ms total)
T064C 005:395 JLINK_ReadMem (0x20000028, 0x0004 Bytes, ...) -- CPU is running -- CPU_ReadMem(4 bytes @ 0x20000028) -- Data:  20 36 D5 3F  returns 0x00 (0002ms, 0397ms total)
T064C 005:397 JLINK_ReadMem (0x2000002C, 0x0004 Bytes, ...) -- CPU is running -- CPU_ReadMem(4 bytes @ 0x2000002C) -- Data:  5A D8 B8 3F  returns 0x00 (0002ms, 0399ms total)
T064C 005:399 JLINK_ReadMem (0x20000044, 0x0004 Bytes, ...) -- CPU is running -- CPU_ReadMem(4 bytes @ 0x20000044) -- Data:  00 00 00 00  returns 0x00 (0001ms, 0400ms total)
T064C 005:400 JLINK_ReadMem (0x40012C00, 0x002C Bytes, ...) -- CPU is running -- CPU_ReadMem(44 bytes @ 0x40012C00) -- Data:  01 00 00 00 00 00 00 00 03 00 00 00 01 00 00 00 ...  returns 0x00 (0002ms, 0402ms total)
T064C 005:402 JLINK_ReadMem (0x40012C2C, 0x0004 Bytes, ...) -- CPU is running -- CPU_ReadMem(4 bytes @ 0x40012C2C) -- Data:  40 06 00 00  returns 0x00 (0001ms, 0403ms total)
T064C 005:403 JLINK_ReadMem (0x40012C30, 0x0004 Bytes, ...) -- CPU is running -- CPU_ReadMem(4 bytes @ 0x40012C30) -- Data:  00 00 00 00  returns 0x00 (0002ms, 0405ms total)
T064C 005:405 JLINK_ReadMem (0x40012C34, 0x000C Bytes, ...) -- CPU is running -- CPU_ReadMem(12 bytes @ 0x40012C34) -- Data:  40 06 00 00 00 00 00 00 00 00 00 00  returns 0x00 (0002ms, 0407ms total)
T064C 005:407 JLINK_ReadMem (0x40012C40, 0x0004 Bytes, ...) -- CPU is running -- CPU_ReadMem(4 bytes @ 0x40012C40) -- Data:  00 00 00 00  returns 0x00 (0002ms, 0409ms total)
T064C 005:409 JLINK_ReadMem (0x40012C44, 0x0004 Bytes, ...) -- CPU is running -- CPU_ReadMem(4 bytes @ 0x40012C44) -- Data:  00 00 00 00  returns 0x00 (0002ms, 0411ms total)
T064C 005:411 JLINK_ReadMem (0x40012C48, 0x0004 Bytes, ...) -- CPU is running -- CPU_ReadMem(4 bytes @ 0x40012C48) -- Data:  00 00 00 00  returns 0x00 (0002ms, 0413ms total)
T064C 005:413 JLINK_ReadMem (0x40012C4C, 0x0004 Bytes, ...) -- CPU is running -- CPU_ReadMem(4 bytes @ 0x40012C4C) -- Data:  11 00 00 00  returns 0x00 (0001ms, 0414ms total)
T064C 005:414 JLINK_ReadMem (0x40012C00, 0x0004 Bytes, ...) -- CPU is running -- CPU_ReadMem(4 bytes @ 0x40012C00) -- Data:  01 00 00 00  returns 0x00 (0001ms, 0415ms total)
T064C 005:415 JLINK_ReadMem (0x40012C00, 0x0004 Bytes, ...) -- CPU is running -- CPU_ReadMem(4 bytes @ 0x40012C00) -- Data:  01 00 00 00  returns 0x00 (0002ms, 0417ms total)
T064C 005:417 JLINK_ReadMem (0x40012C00, 0x0004 Bytes, ...) -- CPU is running -- CPU_ReadMem(4 bytes @ 0x40012C00) -- Data:  01 00 00 00  returns 0x00 (0002ms, 0419ms total)
T064C 005:419 JLINK_ReadMem (0x40012C00, 0x0004 Bytes, ...) -- CPU is running -- CPU_ReadMem(4 bytes @ 0x40012C00) -- Data:  01 00 00 00  returns 0x00 (0002ms, 0421ms total)
T064C 005:421 JLINK_ReadMem (0x40012C00, 0x0004 Bytes, ...) -- CPU is running -- CPU_ReadMem(4 bytes @ 0x40012C00) -- Data:  01 00 00 00  returns 0x00 (0002ms, 0423ms total)
T064C 005:423 JLINK_ReadMem (0x40012C00, 0x0004 Bytes, ...) -- CPU is running -- CPU_ReadMem(4 bytes @ 0x40012C00) -- Data:  11 00 00 00  returns 0x00 (0002ms, 0425ms total)
T064C 005:425 JLINK_ReadMem (0x40012C00, 0x0004 Bytes, ...) -- CPU is running -- CPU_ReadMem(4 bytes @ 0x40012C00) -- Data:  11 00 00 00  returns 0x00 (0002ms, 0427ms total)
T064C 005:427 JLINK_ReadMem (0x40012C00, 0x0004 Bytes, ...) -- CPU is running -- CPU_ReadMem(4 bytes @ 0x40012C00) -- Data:  11 00 00 00  returns 0x00 (0002ms, 0429ms total)
T064C 005:429 JLINK_ReadMem (0x40012C00, 0x0004 Bytes, ...) -- CPU is running -- CPU_ReadMem(4 bytes @ 0x40012C00) -- Data:  11 00 00 00  returns 0x00 (0001ms, 0430ms total)
T064C 005:436 JLINK_ReadMem (0x40012C08, 0x0004 Bytes, ...) -- CPU is running -- CPU_ReadMem(4 bytes @ 0x40012C08) -- Data:  03 00 00 00  returns 0x00 (0001ms, 0431ms total)
T064C 005:437 JLINK_ReadMem (0x40012C08, 0x0004 Bytes, ...) -- CPU is running -- CPU_ReadMem(4 bytes @ 0x40012C08) -- Data:  03 00 00 00  returns 0x00 (0002ms, 0433ms total)
T064C 005:439 JLINK_ReadMem (0x40012C08, 0x0004 Bytes, ...) -- CPU is running -- CPU_ReadMem(4 bytes @ 0x40012C08) -- Data:  03 00 00 00  returns 0x00 (0002ms, 0435ms total)
T064C 005:441 JLINK_ReadMem (0x40012C08, 0x0004 Bytes, ...) -- CPU is running -- CPU_ReadMem(4 bytes @ 0x40012C08) -- Data:  03 00 00 00  returns 0x00 (0002ms, 0437ms total)
T064C 005:443 JLINK_ReadMem (0x40012C08, 0x0004 Bytes, ...) -- CPU is running -- CPU_ReadMem(4 bytes @ 0x40012C08) -- Data:  03 00 00 00  returns 0x00 (0002ms, 0439ms total)
T064C 005:445 JLINK_ReadMem (0x40012C08, 0x0004 Bytes, ...) -- CPU is running -- CPU_ReadMem(4 bytes @ 0x40012C08) -- Data:  03 00 00 00  returns 0x00 (0001ms, 0440ms total)
T064C 005:446 JLINK_ReadMem (0x40012C08, 0x0004 Bytes, ...) -- CPU is running -- CPU_ReadMem(4 bytes @ 0x40012C08) -- Data:  03 00 00 00  returns 0x00 (0002ms, 0442ms total)
T064C 005:448 JLINK_ReadMem (0x40012C08, 0x0004 Bytes, ...) -- CPU is running -- CPU_ReadMem(4 bytes @ 0x40012C08) -- Data:  03 00 00 00  returns 0x00 (0002ms, 0444ms total)
T064C 005:455 JLINK_ReadMem (0x40012C0C, 0x0004 Bytes, ...) -- CPU is running -- CPU_ReadMem(4 bytes @ 0x40012C0C) -- Data:  01 00 00 00  returns 0x00 (0001ms, 0445ms total)
T064C 005:456 JLINK_ReadMem (0x40012C0C, 0x0004 Bytes, ...) -- CPU is running -- CPU_ReadMem(4 bytes @ 0x40012C0C) -- Data:  01 00 00 00  returns 0x00 (0002ms, 0447ms total)
T064C 005:458 JLINK_ReadMem (0x40012C0C, 0x0004 Bytes, ...) -- CPU is running -- CPU_ReadMem(4 bytes @ 0x40012C0C) -- Data:  01 00 00 00  returns 0x00 (0002ms, 0449ms total)
T064C 005:460 JLINK_ReadMem (0x40012C0C, 0x0004 Bytes, ...) -- CPU is running -- CPU_ReadMem(4 bytes @ 0x40012C0C) -- Data:  01 00 00 00  returns 0x00 (0002ms, 0451ms total)
T064C 005:462 JLINK_ReadMem (0x40012C0C, 0x0004 Bytes, ...) -- CPU is running -- CPU_ReadMem(4 bytes @ 0x40012C0C) -- Data:  01 00 00 00  returns 0x00 (0002ms, 0453ms total)
T064C 005:464 JLINK_ReadMem (0x40012C0C, 0x0004 Bytes, ...) -- CPU is running -- CPU_ReadMem(4 bytes @ 0x40012C0C) -- Data:  01 00 00 00  returns 0x00 (0002ms, 0455ms total)
T064C 005:466 JLINK_ReadMem (0x40012C0C, 0x0004 Bytes, ...) -- CPU is running -- CPU_ReadMem(4 bytes @ 0x40012C0C) -- Data:  01 00 00 00  returns 0x00 (0002ms, 0457ms total)
T064C 005:468 JLINK_ReadMem (0x40012C0C, 0x0004 Bytes, ...) -- CPU is running -- CPU_ReadMem(4 bytes @ 0x40012C0C) -- Data:  01 00 00 00  returns 0x00 (0001ms, 0458ms total)
T064C 005:469 JLINK_ReadMem (0x40012C0C, 0x0004 Bytes, ...) -- CPU is running -- CPU_ReadMem(4 bytes @ 0x40012C0C) -- Data:  01 00 00 00  returns 0x00 (0002ms, 0460ms total)
T064C 005:471 JLINK_ReadMem (0x40012C0C, 0x0004 Bytes, ...) -- CPU is running -- CPU_ReadMem(4 bytes @ 0x40012C0C) -- Data:  01 00 00 00  returns 0x00 (0002ms, 0462ms total)
T064C 005:473 JLINK_ReadMem (0x40012C0C, 0x0004 Bytes, ...) -- CPU is running -- CPU_ReadMem(4 bytes @ 0x40012C0C) -- Data:  01 00 00 00  returns 0x00 (0002ms, 0464ms total)
T064C 005:475 JLINK_ReadMem (0x40012C0C, 0x0004 Bytes, ...) -- CPU is running -- CPU_ReadMem(4 bytes @ 0x40012C0C) -- Data:  01 00 00 00  returns 0x00 (0002ms, 0466ms total)
T064C 005:477 JLINK_ReadMem (0x40012C0C, 0x0004 Bytes, ...) -- CPU is running -- CPU_ReadMem(4 bytes @ 0x40012C0C) -- Data:  01 00 00 00  returns 0x00 (0002ms, 0468ms total)
T064C 005:479 JLINK_ReadMem (0x40012C0C, 0x0004 Bytes, ...) -- CPU is running -- CPU_ReadMem(4 bytes @ 0x40012C0C) -- Data:  01 00 00 00  returns 0x00 (0001ms, 0469ms total)
T064C 005:480 JLINK_ReadMem (0x40012C0C, 0x0004 Bytes, ...) -- CPU is running -- CPU_ReadMem(4 bytes @ 0x40012C0C) -- Data:  01 00 00 00  returns 0x00 (0002ms, 0471ms total)
T064C 005:482 JLINK_ReadMem (0x40012C0C, 0x0004 Bytes, ...) -- CPU is running -- CPU_ReadMem(4 bytes @ 0x40012C0C) -- Data:  01 00 00 00  returns 0x00 (0002ms, 0473ms total)
T064C 005:489 JLINK_ReadMem (0x40012C10, 0x0004 Bytes, ...) -- CPU is running -- CPU_ReadMem(4 bytes @ 0x40012C10) -- Data:  1A 02 00 00  returns 0x00 (0002ms, 0475ms total)
T064C 005:491 JLINK_ReadMem (0x40012C10, 0x0004 Bytes, ...) -- CPU is running -- CPU_ReadMem(4 bytes @ 0x40012C10) -- Data:  1A 02 00 00  returns 0x00 (0002ms, 0477ms total)
T064C 005:493 JLINK_ReadMem (0x40012C10, 0x0004 Bytes, ...) -- CPU is running -- CPU_ReadMem(4 bytes @ 0x40012C10) -- Data:  1A 02 00 00  returns 0x00 (0002ms, 0479ms total)
T064C 005:495 JLINK_ReadMem (0x40012C10, 0x0004 Bytes, ...) -- CPU is running -- CPU_ReadMem(4 bytes @ 0x40012C10) -- Data:  1A 02 00 00  returns 0x00 (0002ms, 0481ms total)
T064C 005:497 JLINK_ReadMem (0x40012C10, 0x0004 Bytes, ...) -- CPU is running -- CPU_ReadMem(4 bytes @ 0x40012C10) -- Data:  1A 02 00 00  returns 0x00 (0002ms, 0483ms total)
T064C 005:499 JLINK_ReadMem (0x40012C10, 0x0004 Bytes, ...) -- CPU is running -- CPU_ReadMem(4 bytes @ 0x40012C10) -- Data:  1A 02 00 00  returns 0x00 (0002ms, 0485ms total)
T064C 005:501 JLINK_ReadMem (0x40012C10, 0x0004 Bytes, ...) -- CPU is running -- CPU_ReadMem(4 bytes @ 0x40012C10) -- Data:  1A 02 00 00  returns 0x00 (0002ms, 0487ms total)
T064C 005:503 JLINK_ReadMem (0x40012C10, 0x0004 Bytes, ...) -- CPU is running -- CPU_ReadMem(4 bytes @ 0x40012C10) -- Data:  1A 02 00 00  returns 0x00 (0002ms, 0489ms total)
T064C 005:505 JLINK_ReadMem (0x40012C10, 0x0004 Bytes, ...) -- CPU is running -- CPU_ReadMem(4 bytes @ 0x40012C10) -- Data:  1A 02 00 00  returns 0x00 (0002ms, 0491ms total)
T064C 005:507 JLINK_ReadMem (0x40012C10, 0x0004 Bytes, ...) -- CPU is running -- CPU_ReadMem(4 bytes @ 0x40012C10) -- Data:  1A 02 00 00  returns 0x00 (0002ms, 0493ms total)
T064C 005:509 JLINK_ReadMem (0x40012C10, 0x0004 Bytes, ...) -- CPU is running -- CPU_ReadMem(4 bytes @ 0x40012C10) -- Data:  1A 02 00 00  returns 0x00 (0002ms, 0495ms total)
T064C 005:511 JLINK_ReadMem (0x40012C10, 0x0004 Bytes, ...) -- CPU is running -- CPU_ReadMem(4 bytes @ 0x40012C10) -- Data:  1A 02 00 00  returns 0x00 (0002ms, 0497ms total)
T064C 005:513 JLINK_ReadMem (0x40012C10, 0x0004 Bytes, ...) -- CPU is running -- CPU_ReadMem(4 bytes @ 0x40012C10) -- Data:  1A 02 00 00  returns 0x00 (0002ms, 0499ms total)
T064C 005:520 JLINK_ReadMem (0x40012C18, 0x0004 Bytes, ...) -- CPU is running -- CPU_ReadMem(4 bytes @ 0x40012C18) -- Data:  61 01 00 00  returns 0x00 (0002ms, 0501ms total)
T064C 005:522 JLINK_ReadMem (0x40012C18, 0x0004 Bytes, ...) -- CPU is running -- CPU_ReadMem(4 bytes @ 0x40012C18) -- Data:  61 01 00 00  returns 0x00 (0002ms, 0503ms total)
T064C 005:524 JLINK_ReadMem (0x40012C18, 0x0004 Bytes, ...) -- CPU is running -- CPU_ReadMem(4 bytes @ 0x40012C18) -- Data:  61 01 00 00  returns 0x00 (0002ms, 0505ms total)
T064C 005:526 JLINK_ReadMem (0x40012C18, 0x0004 Bytes, ...) -- CPU is running -- CPU_ReadMem(4 bytes @ 0x40012C18) -- Data:  61 01 00 00  returns 0x00 (0002ms, 0507ms total)
T064C 005:528 JLINK_ReadMem (0x40012C18, 0x0004 Bytes, ...) -- CPU is running -- CPU_ReadMem(4 bytes @ 0x40012C18) -- Data:  61 01 00 00  returns 0x00 (0002ms, 0509ms total)
T064C 005:530 JLINK_ReadMem (0x40012C18, 0x0004 Bytes, ...) -- CPU is running -- CPU_ReadMem(4 bytes @ 0x40012C18) -- Data:  61 01 00 00  returns 0x00 (0002ms, 0511ms total)
T064C 005:532 JLINK_ReadMem (0x40012C18, 0x0004 Bytes, ...) -- CPU is running -- CPU_ReadMem(4 bytes @ 0x40012C18) -- Data:  61 01 00 00  returns 0x00 (0002ms, 0513ms total)
T064C 005:534 JLINK_ReadMem (0x40012C18, 0x0004 Bytes, ...) -- CPU is running -- CPU_ReadMem(4 bytes @ 0x40012C18) -- Data:  61 01 00 00  returns 0x00 (0002ms, 0515ms total)
T064C 005:536 JLINK_ReadMem (0x40012C18, 0x0004 Bytes, ...) -- CPU is running -- CPU_ReadMem(4 bytes @ 0x40012C18) -- Data:  61 01 00 00  returns 0x00 (0002ms, 0517ms total)
T064C 005:538 JLINK_ReadMem (0x40012C18, 0x0004 Bytes, ...) -- CPU is running -- CPU_ReadMem(4 bytes @ 0x40012C18) -- Data:  61 01 00 00  returns 0x00 (0002ms, 0519ms total)
T064C 005:540 JLINK_ReadMem (0x40012C18, 0x0004 Bytes, ...) -- CPU is running -- CPU_ReadMem(4 bytes @ 0x40012C18) -- Data:  61 01 00 00  returns 0x00 (0002ms, 0521ms total)
T064C 005:548 JLINK_ReadMem (0x40012C18, 0x0004 Bytes, ...) -- CPU is running -- CPU_ReadMem(4 bytes @ 0x40012C18) -- Data:  61 01 00 00  returns 0x00 (0001ms, 0522ms total)
T064C 005:549 JLINK_ReadMem (0x40012C18, 0x0004 Bytes, ...) -- CPU is running -- CPU_ReadMem(4 bytes @ 0x40012C18) -- Data:  61 01 00 00  returns 0x00 (0002ms, 0524ms total)
T064C 005:551 JLINK_ReadMem (0x40012C18, 0x0004 Bytes, ...) -- CPU is running -- CPU_ReadMem(4 bytes @ 0x40012C18) -- Data:  61 01 00 00  returns 0x00 (0002ms, 0526ms total)
T064C 005:553 JLINK_ReadMem (0x40012C18, 0x0004 Bytes, ...) -- CPU is running -- CPU_ReadMem(4 bytes @ 0x40012C18) -- Data:  61 01 00 00  returns 0x00 (0002ms, 0528ms total)
T064C 005:555 JLINK_ReadMem (0x40012C18, 0x0004 Bytes, ...) -- CPU is running -- CPU_ReadMem(4 bytes @ 0x40012C18) -- Data:  61 01 00 00  returns 0x00 (0002ms, 0530ms total)
T064C 005:557 JLINK_ReadMem (0x40012C18, 0x0004 Bytes, ...) -- CPU is running -- CPU_ReadMem(4 bytes @ 0x40012C18) -- Data:  61 01 00 00  returns 0x00 (0002ms, 0532ms total)
T064C 005:559 JLINK_ReadMem (0x40012C18, 0x0004 Bytes, ...) -- CPU is running -- CPU_ReadMem(4 bytes @ 0x40012C18) -- Data:  61 01 00 00  returns 0x00 (0002ms, 0534ms total)
T064C 005:567 JLINK_ReadMem (0x40012C20, 0x0004 Bytes, ...) -- CPU is running -- CPU_ReadMem(4 bytes @ 0x40012C20) -- Data:  01 00 00 00  returns 0x00 (0001ms, 0535ms total)
T064C 005:568 JLINK_ReadMem (0x40012C20, 0x0004 Bytes, ...) -- CPU is running -- CPU_ReadMem(4 bytes @ 0x40012C20) -- Data:  01 00 00 00  returns 0x00 (0002ms, 0537ms total)
T064C 005:570 JLINK_ReadMem (0x40012C20, 0x0004 Bytes, ...) -- CPU is running -- CPU_ReadMem(4 bytes @ 0x40012C20) -- Data:  01 00 00 00  returns 0x00 (0002ms, 0539ms total)
T064C 005:572 JLINK_ReadMem (0x40012C20, 0x0004 Bytes, ...) -- CPU is running -- CPU_ReadMem(4 bytes @ 0x40012C20) -- Data:  01 00 00 00  returns 0x00 (0002ms, 0541ms total)
T064C 005:574 JLINK_ReadMem (0x40012C20, 0x0004 Bytes, ...) -- CPU is running -- CPU_ReadMem(4 bytes @ 0x40012C20) -- Data:  01 00 00 00  returns 0x00 (0002ms, 0543ms total)
T064C 005:576 JLINK_ReadMem (0x40012C20, 0x0004 Bytes, ...) -- CPU is running -- CPU_ReadMem(4 bytes @ 0x40012C20) -- Data:  01 00 00 00  returns 0x00 (0002ms, 0545ms total)
T064C 005:578 JLINK_ReadMem (0x40012C20, 0x0004 Bytes, ...) -- CPU is running -- CPU_ReadMem(4 bytes @ 0x40012C20) -- Data:  01 00 00 00  returns 0x00 (0001ms, 0546ms total)
T064C 005:579 JLINK_ReadMem (0x40012C20, 0x0004 Bytes, ...) -- CPU is running -- CPU_ReadMem(4 bytes @ 0x40012C20) -- Data:  01 00 00 00  returns 0x00 (0002ms, 0548ms total)
T064C 005:581 JLINK_ReadMem (0x40012C20, 0x0004 Bytes, ...) -- CPU is running -- CPU_ReadMem(4 bytes @ 0x40012C20) -- Data:  01 00 00 00  returns 0x00 (0002ms, 0550ms total)
T064C 005:583 JLINK_ReadMem (0x40012C20, 0x0004 Bytes, ...) -- CPU is running -- CPU_ReadMem(4 bytes @ 0x40012C20) -- Data:  01 00 00 00  returns 0x00 (0002ms, 0552ms total)
T064C 005:585 JLINK_ReadMem (0x40012C20, 0x0004 Bytes, ...) -- CPU is running -- CPU_ReadMem(4 bytes @ 0x40012C20) -- Data:  01 00 00 00  returns 0x00 (0002ms, 0554ms total)
T064C 005:587 JLINK_ReadMem (0x40012C20, 0x0004 Bytes, ...) -- CPU is running -- CPU_ReadMem(4 bytes @ 0x40012C20) -- Data:  01 00 00 00  returns 0x00 (0002ms, 0556ms total)
T064C 005:589 JLINK_ReadMem (0x40012C20, 0x0004 Bytes, ...) -- CPU is running -- CPU_ReadMem(4 bytes @ 0x40012C20) -- Data:  01 00 00 00  returns 0x00 (0002ms, 0558ms total)
T064C 005:591 JLINK_ReadMem (0x40012C20, 0x0004 Bytes, ...) -- CPU is running -- CPU_ReadMem(4 bytes @ 0x40012C20) -- Data:  01 00 00 00  returns 0x00 (0002ms, 0560ms total)
T064C 005:593 JLINK_ReadMem (0x40012C20, 0x0004 Bytes, ...) -- CPU is running -- CPU_ReadMem(4 bytes @ 0x40012C20) -- Data:  01 00 00 00  returns 0x00 (0002ms, 0562ms total)
T064C 005:601 JLINK_ReadMem (0x40012C2C, 0x0004 Bytes, ...) -- CPU is running -- CPU_ReadMem(4 bytes @ 0x40012C2C) -- Data:  40 06 00 00  returns 0x00 (0002ms, 0564ms total)
T064C 005:603 JLINK_ReadMem (0x40012C2C, 0x0004 Bytes, ...) -- CPU is running -- CPU_ReadMem(4 bytes @ 0x40012C2C) -- Data:  40 06 00 00  returns 0x00 (0002ms, 0566ms total)
T064C 005:610 JLINK_ReadMem (0x40012C34, 0x0004 Bytes, ...) -- CPU is running -- CPU_ReadMem(4 bytes @ 0x40012C34) -- Data:  40 06 00 00  returns 0x00 (0002ms, 0568ms total)
T064C 005:612 JLINK_ReadMem (0x40012C34, 0x0004 Bytes, ...) -- CPU is running -- CPU_ReadMem(4 bytes @ 0x40012C34) -- Data:  40 06 00 00  returns 0x00 (0002ms, 0570ms total)
T064C 005:620 JLINK_ReadMem (0x40012C4C, 0x0004 Bytes, ...) -- CPU is running -- CPU_ReadMem(4 bytes @ 0x40012C4C) -- Data:  01 00 00 00  returns 0x00 (0001ms, 0571ms total)
T064C 005:621 JLINK_ReadMem (0x40012C4C, 0x0004 Bytes, ...) -- CPU is running -- CPU_ReadMem(4 bytes @ 0x40012C4C) -- Data:  01 00 00 00  returns 0x00 (0002ms, 0573ms total)
T0FCC 005:629 JLINK_IsHalted()  returns FALSE (0002ms, 0575ms total)
T0FCC 005:732 JLINK_IsHalted()  returns FALSE (0002ms, 0575ms total)
T0FCC 005:834 JLINK_IsHalted()  returns FALSE (0004ms, 0577ms total)
T0FCC 005:938 JLINK_ReadMemU32(0xE0001004, 0x0001 Items, ...) -- CPU is running -- CPU_ReadMem(4 bytes @ 0xE0001004) -- Data:  00 00 00 00  returns 0x01 (0002ms, 0575ms total)
T064C 005:944 JLINK_ReadMem (0x20000020, 0x0004 Bytes, ...) -- CPU is running -- CPU_ReadMem(4 bytes @ 0x20000020) -- Data:  00 00 00 00  returns 0x00 (0004ms, 0579ms total)
T064C 005:948 JLINK_ReadMem (0x20000024, 0x0004 Bytes, ...) -- CPU is running -- CPU_ReadMem(4 bytes @ 0x20000024) -- Data:  05 16 AD 3F  returns 0x00 (0002ms, 0581ms total)
T064C 005:950 JLINK_ReadMem (0x20000028, 0x0004 Bytes, ...) -- CPU is running -- CPU_ReadMem(4 bytes @ 0x20000028) -- Data:  A1 DC D6 3F  returns 0x00 (0002ms, 0583ms total)
T064C 005:952 JLINK_ReadMem (0x2000002C, 0x0004 Bytes, ...) -- CPU is running -- CPU_ReadMem(4 bytes @ 0x2000002C) -- Data:  92 27 B9 3F  returns 0x00 (0002ms, 0585ms total)
T064C 005:957 JLINK_ReadMem (0x20000044, 0x0004 Bytes, ...) -- CPU is running -- CPU_ReadMem(4 bytes @ 0x20000044) -- Data:  00 00 00 00  returns 0x00 (0003ms, 0588ms total)
T064C 005:960 JLINK_ReadMem (0x40012C00, 0x002C Bytes, ...) -- CPU is running -- CPU_ReadMem(44 bytes @ 0x40012C00) -- Data:  01 00 00 00 00 00 00 00 03 00 00 00 01 00 00 00 ...  returns 0x00 (0002ms, 0590ms total)
T064C 005:962 JLINK_ReadMem (0x40012C2C, 0x0004 Bytes, ...) -- CPU is running -- CPU_ReadMem(4 bytes @ 0x40012C2C) -- Data:  40 06 00 00  returns 0x00 (0002ms, 0592ms total)
T064C 005:964 JLINK_ReadMem (0x40012C30, 0x0004 Bytes, ...) -- CPU is running -- CPU_ReadMem(4 bytes @ 0x40012C30) -- Data:  00 00 00 00  returns 0x00 (0002ms, 0594ms total)
T064C 005:966 JLINK_ReadMem (0x40012C34, 0x000C Bytes, ...) -- CPU is running -- CPU_ReadMem(12 bytes @ 0x40012C34) -- Data:  40 06 00 00 00 00 00 00 00 00 00 00  returns 0x00 (0002ms, 0596ms total)
T064C 005:968 JLINK_ReadMem (0x40012C40, 0x0004 Bytes, ...) -- CPU is running -- CPU_ReadMem(4 bytes @ 0x40012C40) -- Data:  00 00 00 00  returns 0x00 (0002ms, 0598ms total)
T064C 005:970 JLINK_ReadMem (0x40012C44, 0x0004 Bytes, ...) -- CPU is running -- CPU_ReadMem(4 bytes @ 0x40012C44) -- Data:  00 00 00 00  returns 0x00 (0002ms, 0600ms total)
T064C 005:972 JLINK_ReadMem (0x40012C48, 0x0004 Bytes, ...) -- CPU is running -- CPU_ReadMem(4 bytes @ 0x40012C48) -- Data:  00 00 00 00  returns 0x00 (0002ms, 0602ms total)
T064C 005:974 JLINK_ReadMem (0x40012C4C, 0x0004 Bytes, ...) -- CPU is running -- CPU_ReadMem(4 bytes @ 0x40012C4C) -- Data:  01 00 00 00  returns 0x00 (0002ms, 0604ms total)
T064C 005:976 JLINK_ReadMem (0x40012C00, 0x0004 Bytes, ...) -- CPU is running -- CPU_ReadMem(4 bytes @ 0x40012C00) -- Data:  01 00 00 00  returns 0x00 (0002ms, 0606ms total)
T064C 005:978 JLINK_ReadMem (0x40012C00, 0x0004 Bytes, ...) -- CPU is running -- CPU_ReadMem(4 bytes @ 0x40012C00) -- Data:  01 00 00 00  returns 0x00 (0001ms, 0607ms total)
T064C 005:979 JLINK_ReadMem (0x40012C00, 0x0004 Bytes, ...) -- CPU is running -- CPU_ReadMem(4 bytes @ 0x40012C00) -- Data:  01 00 00 00  returns 0x00 (0002ms, 0609ms total)
T064C 005:981 JLINK_ReadMem (0x40012C00, 0x0004 Bytes, ...) -- CPU is running -- CPU_ReadMem(4 bytes @ 0x40012C00) -- Data:  01 00 00 00  returns 0x00 (0002ms, 0611ms total)
T064C 005:983 JLINK_ReadMem (0x40012C00, 0x0004 Bytes, ...) -- CPU is running -- CPU_ReadMem(4 bytes @ 0x40012C00) -- Data:  11 00 00 00  returns 0x00 (0002ms, 0613ms total)
T064C 005:985 JLINK_ReadMem (0x40012C00, 0x0004 Bytes, ...) -- CPU is running -- CPU_ReadMem(4 bytes @ 0x40012C00) -- Data:  11 00 00 00  returns 0x00 (0002ms, 0615ms total)
T064C 005:987 JLINK_ReadMem (0x40012C00, 0x0004 Bytes, ...) -- CPU is running -- CPU_ReadMem(4 bytes @ 0x40012C00) -- Data:  11 00 00 00  returns 0x00 (0002ms, 0617ms total)
T064C 005:989 JLINK_ReadMem (0x40012C00, 0x0004 Bytes, ...) -- CPU is running -- CPU_ReadMem(4 bytes @ 0x40012C00) -- Data:  11 00 00 00  returns 0x00 (0002ms, 0619ms total)
T064C 005:991 JLINK_ReadMem (0x40012C00, 0x0004 Bytes, ...) -- CPU is running -- CPU_ReadMem(4 bytes @ 0x40012C00) -- Data:  11 00 00 00  returns 0x00 (0002ms, 0621ms total)
T0FCC 005:999 JLINK_IsHalted()  returns FALSE (0002ms, 0623ms total)
T0FCC 006:102 JLINK_IsHalted()  returns FALSE (0002ms, 0623ms total)
T0FCC 006:204 JLINK_IsHalted()  returns FALSE (0001ms, 0622ms total)
T0FCC 006:305 JLINK_IsHalted()  returns FALSE (0002ms, 0623ms total)
T0FCC 006:407 JLINK_IsHalted()  returns FALSE (0002ms, 0623ms total)
T0FCC 006:509 JLINK_ReadMemU32(0xE0001004, 0x0001 Items, ...) -- CPU is running -- CPU_ReadMem(4 bytes @ 0xE0001004) -- Data:  00 00 00 00  returns 0x01 (0001ms, 0622ms total)
T064C 006:511 JLINK_ReadMem (0x20000020, 0x0004 Bytes, ...) -- CPU is running -- CPU_ReadMem(4 bytes @ 0x20000020) -- Data:  00 00 00 00  returns 0x00 (0002ms, 0624ms total)
T064C 006:513 JLINK_ReadMem (0x20000024, 0x0004 Bytes, ...) -- CPU is running -- CPU_ReadMem(4 bytes @ 0x20000024) -- Data:  45 E9 AD 3F  returns 0x00 (0002ms, 0626ms total)
T064C 006:515 JLINK_ReadMem (0x20000028, 0x0004 Bytes, ...) -- CPU is running -- CPU_ReadMem(4 bytes @ 0x20000028) -- Data:  20 36 D5 3F  returns 0x00 (0002ms, 0628ms total)
T064C 006:517 JLINK_ReadMem (0x2000002C, 0x0004 Bytes, ...) -- CPU is running -- CPU_ReadMem(4 bytes @ 0x2000002C) -- Data:  5A D8 B8 3F  returns 0x00 (0002ms, 0630ms total)
T064C 006:522 JLINK_ReadMem (0x20000044, 0x0004 Bytes, ...) -- CPU is running -- CPU_ReadMem(4 bytes @ 0x20000044) -- Data:  00 00 00 00  returns 0x00 (0002ms, 0632ms total)
T064C 006:524 JLINK_ReadMem (0x40012C00, 0x002C Bytes, ...) -- CPU is running -- CPU_ReadMem(44 bytes @ 0x40012C00) -- Data:  11 00 00 00 00 00 00 00 03 00 00 00 01 00 00 00 ...  returns 0x00 (0002ms, 0634ms total)
T064C 006:526 JLINK_ReadMem (0x40012C2C, 0x0004 Bytes, ...) -- CPU is running -- CPU_ReadMem(4 bytes @ 0x40012C2C) -- Data:  40 06 00 00  returns 0x00 (0001ms, 0635ms total)
T064C 006:527 JLINK_ReadMem (0x40012C30, 0x0004 Bytes, ...) -- CPU is running -- CPU_ReadMem(4 bytes @ 0x40012C30) -- Data:  00 00 00 00  returns 0x00 (0001ms, 0636ms total)
T064C 006:528 JLINK_ReadMem (0x40012C34, 0x000C Bytes, ...) -- CPU is running -- CPU_ReadMem(12 bytes @ 0x40012C34) -- Data:  40 06 00 00 00 00 00 00 00 00 00 00  returns 0x00 (0001ms, 0637ms total)
T064C 006:529 JLINK_ReadMem (0x40012C40, 0x0004 Bytes, ...) -- CPU is running -- CPU_ReadMem(4 bytes @ 0x40012C40) -- Data:  00 00 00 00  returns 0x00 (0002ms, 0639ms total)
T064C 006:531 JLINK_ReadMem (0x40012C44, 0x0004 Bytes, ...) -- CPU is running -- CPU_ReadMem(4 bytes @ 0x40012C44) -- Data:  00 00 00 00  returns 0x00 (0002ms, 0641ms total)
T064C 006:533 JLINK_ReadMem (0x40012C48, 0x0004 Bytes, ...) -- CPU is running -- CPU_ReadMem(4 bytes @ 0x40012C48) -- Data:  00 00 00 00  returns 0x00 (0001ms, 0642ms total)
T064C 006:534 JLINK_ReadMem (0x40012C4C, 0x0004 Bytes, ...) -- CPU is running -- CPU_ReadMem(4 bytes @ 0x40012C4C) -- Data:  01 00 00 00  returns 0x00 (0001ms, 0643ms total)
T064C 006:535 JLINK_ReadMem (0x40012C24, 0x0004 Bytes, ...) -- CPU is running -- CPU_ReadMem(4 bytes @ 0x40012C24) -- Data:  00 00 00 00  returns 0x00 (0002ms, 0645ms total)
T064C 006:537 JLINK_ReadMem (0x40012C24, 0x0004 Bytes, ...) -- CPU is running -- CPU_ReadMem(4 bytes @ 0x40012C24) -- Data:  00 00 00 00  returns 0x00 (0002ms, 0647ms total)
T0FCC 006:544 JLINK_IsHalted()  returns FALSE (0002ms, 0649ms total)
T0FCC 006:646 JLINK_IsHalted()  returns FALSE (0002ms, 0649ms total)
T0FCC 006:748 JLINK_IsHalted()  returns FALSE (0002ms, 0649ms total)
T0FCC 006:850 JLINK_IsHalted()  returns FALSE (0005ms, 0652ms total)
T0FCC 006:955 JLINK_IsHalted()  returns FALSE (0002ms, 0649ms total)
T0FCC 007:057 JLINK_ReadMemU32(0xE0001004, 0x0001 Items, ...) -- CPU is running -- CPU_ReadMem(4 bytes @ 0xE0001004) -- Data:  00 00 00 00  returns 0x01 (0002ms, 0649ms total)
T064C 007:064 JLINK_ReadMem (0x20000020, 0x0004 Bytes, ...) -- CPU is running -- CPU_ReadMem(4 bytes @ 0x20000020) -- Data:  00 00 00 00  returns 0x00 (0002ms, 0651ms total)
T064C 007:066 JLINK_ReadMem (0x20000024, 0x0004 Bytes, ...) -- CPU is running -- CPU_ReadMem(4 bytes @ 0x20000024) -- Data:  75 B4 AD 3F  returns 0x00 (0002ms, 0653ms total)
T064C 007:070 JLINK_ReadMem (0x20000028, 0x0004 Bytes, ...) -- CPU is running -- CPU_ReadMem(4 bytes @ 0x20000028) -- Data:  28 BA D5 3F  returns 0x00 (0002ms, 0655ms total)
T064C 007:072 JLINK_ReadMem (0x2000002C, 0x0004 Bytes, ...) -- CPU is running -- CPU_ReadMem(4 bytes @ 0x2000002C) -- Data:  5A D8 B8 3F  returns 0x00 (0002ms, 0657ms total)
T064C 007:074 JLINK_ReadMem (0x20000044, 0x0004 Bytes, ...) -- CPU is running -- CPU_ReadMem(4 bytes @ 0x20000044) -- Data:  00 00 00 00  returns 0x00 (0002ms, 0659ms total)
T064C 007:076 JLINK_ReadMem (0x40012C00, 0x002C Bytes, ...) -- CPU is running -- CPU_ReadMem(44 bytes @ 0x40012C00) -- Data:  01 00 00 00 00 00 00 00 03 00 00 00 01 00 00 00 ...  returns 0x00 (0002ms, 0661ms total)
T064C 007:078 JLINK_ReadMem (0x40012C2C, 0x0004 Bytes, ...) -- CPU is running -- CPU_ReadMem(4 bytes @ 0x40012C2C) -- Data:  40 06 00 00  returns 0x00 (0002ms, 0663ms total)
T064C 007:080 JLINK_ReadMem (0x40012C30, 0x0004 Bytes, ...) -- CPU is running -- CPU_ReadMem(4 bytes @ 0x40012C30) -- Data:  00 00 00 00  returns 0x00 (0002ms, 0665ms total)
T064C 007:082 JLINK_ReadMem (0x40012C34, 0x000C Bytes, ...) -- CPU is running -- CPU_ReadMem(12 bytes @ 0x40012C34) -- Data:  40 06 00 00 00 00 00 00 00 00 00 00  returns 0x00 (0002ms, 0667ms total)
T064C 007:084 JLINK_ReadMem (0x40012C40, 0x0004 Bytes, ...) -- CPU is running -- CPU_ReadMem(4 bytes @ 0x40012C40) -- Data:  00 00 00 00  returns 0x00 (0002ms, 0669ms total)
T064C 007:086 JLINK_ReadMem (0x40012C44, 0x0004 Bytes, ...) -- CPU is running -- CPU_ReadMem(4 bytes @ 0x40012C44) -- Data:  00 00 00 00  returns 0x00 (0002ms, 0671ms total)
T064C 007:088 JLINK_ReadMem (0x40012C48, 0x0004 Bytes, ...) -- CPU is running -- CPU_ReadMem(4 bytes @ 0x40012C48) -- Data:  00 00 00 00  returns 0x00 (0002ms, 0673ms total)
T064C 007:090 JLINK_ReadMem (0x40012C4C, 0x0004 Bytes, ...) -- CPU is running -- CPU_ReadMem(4 bytes @ 0x40012C4C) -- Data:  11 00 00 00  returns 0x00 (0002ms, 0675ms total)
T064C 007:092 JLINK_ReadMem (0x40012C00, 0x0004 Bytes, ...) -- CPU is running -- CPU_ReadMem(4 bytes @ 0x40012C00) -- Data:  01 00 00 00  returns 0x00 (0002ms, 0677ms total)
T064C 007:094 JLINK_ReadMem (0x40012C00, 0x0004 Bytes, ...) -- CPU is running -- CPU_ReadMem(4 bytes @ 0x40012C00) -- Data:  01 00 00 00  returns 0x00 (0002ms, 0679ms total)
T064C 007:096 JLINK_ReadMem (0x40012C00, 0x0004 Bytes, ...) -- CPU is running -- CPU_ReadMem(4 bytes @ 0x40012C00) -- Data:  01 00 00 00  returns 0x00 (0002ms, 0681ms total)
T064C 007:098 JLINK_ReadMem (0x40012C00, 0x0004 Bytes, ...) -- CPU is running -- CPU_ReadMem(4 bytes @ 0x40012C00) -- Data:  01 00 00 00  returns 0x00 (0002ms, 0683ms total)
T064C 007:100 JLINK_ReadMem (0x40012C00, 0x0004 Bytes, ...) -- CPU is running -- CPU_ReadMem(4 bytes @ 0x40012C00) -- Data:  11 00 00 00  returns 0x00 (0002ms, 0685ms total)
T064C 007:102 JLINK_ReadMem (0x40012C00, 0x0004 Bytes, ...) -- CPU is running -- CPU_ReadMem(4 bytes @ 0x40012C00) -- Data:  11 00 00 00  returns 0x00 (0002ms, 0687ms total)
T064C 007:104 JLINK_ReadMem (0x40012C00, 0x0004 Bytes, ...) -- CPU is running -- CPU_ReadMem(4 bytes @ 0x40012C00) -- Data:  11 00 00 00  returns 0x00 (0002ms, 0689ms total)
T064C 007:106 JLINK_ReadMem (0x40012C00, 0x0004 Bytes, ...) -- CPU is running -- CPU_ReadMem(4 bytes @ 0x40012C00) -- Data:  11 00 00 00  returns 0x00 (0002ms, 0691ms total)
T064C 007:108 JLINK_ReadMem (0x40012C00, 0x0004 Bytes, ...) -- CPU is running -- CPU_ReadMem(4 bytes @ 0x40012C00) -- Data:  11 00 00 00  returns 0x00 (0002ms, 0693ms total)
T064C 007:119 JLINK_ReadMem (0x40012C4C, 0x0004 Bytes, ...) -- CPU is running -- CPU_ReadMem(4 bytes @ 0x40012C4C) -- Data:  11 00 00 00  returns 0x00 (0002ms, 0695ms total)
T064C 007:121 JLINK_ReadMem (0x40012C4C, 0x0004 Bytes, ...) -- CPU is running -- CPU_ReadMem(4 bytes @ 0x40012C4C) -- Data:  11 00 00 00  returns 0x00 (0002ms, 0697ms total)
T0FCC 007:131 JLINK_IsHalted()  returns FALSE (0002ms, 0699ms total)
T0FCC 007:233 JLINK_IsHalted()  returns FALSE (0002ms, 0699ms total)
T0FCC 007:335 JLINK_IsHalted()  returns FALSE (0002ms, 0699ms total)
T0FCC 007:437 JLINK_IsHalted()  returns FALSE (0002ms, 0699ms total)
T0FCC 007:539 JLINK_IsHalted()  returns FALSE (0002ms, 0699ms total)
T0FCC 007:641 JLINK_ReadMemU32(0xE0001004, 0x0001 Items, ...) -- CPU is running -- CPU_ReadMem(4 bytes @ 0xE0001004) -- Data:  00 00 00 00  returns 0x01 (0002ms, 0699ms total)
T064C 007:644 JLINK_ReadMem (0x20000020, 0x0004 Bytes, ...) -- CPU is running -- CPU_ReadMem(4 bytes @ 0x20000020) -- Data:  00 00 00 00  returns 0x00 (0003ms, 0702ms total)
T064C 007:647 JLINK_ReadMem (0x20000024, 0x0004 Bytes, ...) -- CPU is running -- CPU_ReadMem(4 bytes @ 0x20000024) -- Data:  0D 9A AD 3F  returns 0x00 (0002ms, 0704ms total)
T064C 007:649 JLINK_ReadMem (0x20000028, 0x0004 Bytes, ...) -- CPU is running -- CPU_ReadMem(4 bytes @ 0x20000028) -- Data:  20 36 D5 3F  returns 0x00 (0002ms, 0706ms total)
T064C 007:651 JLINK_ReadMem (0x2000002C, 0x0004 Bytes, ...) -- CPU is running -- CPU_ReadMem(4 bytes @ 0x2000002C) -- Data:  5A D8 B8 3F  returns 0x00 (0002ms, 0708ms total)
T064C 007:653 JLINK_ReadMem (0x20000044, 0x0004 Bytes, ...) -- CPU is running -- CPU_ReadMem(4 bytes @ 0x20000044) -- Data:  00 00 00 00  returns 0x00 (0002ms, 0710ms total)
T064C 007:655 JLINK_ReadMem (0x40012C00, 0x002C Bytes, ...) -- CPU is running -- CPU_ReadMem(44 bytes @ 0x40012C00) -- Data:  01 00 00 00 00 00 00 00 03 00 00 00 01 00 00 00 ...  returns 0x00 (0002ms, 0712ms total)
T064C 007:657 JLINK_ReadMem (0x40012C2C, 0x0004 Bytes, ...) -- CPU is running -- CPU_ReadMem(4 bytes @ 0x40012C2C) -- Data:  40 06 00 00  returns 0x00 (0002ms, 0714ms total)
T064C 007:659 JLINK_ReadMem (0x40012C30, 0x0004 Bytes, ...) -- CPU is running -- CPU_ReadMem(4 bytes @ 0x40012C30) -- Data:  00 00 00 00  returns 0x00 (0002ms, 0716ms total)
T064C 007:661 JLINK_ReadMem (0x40012C34, 0x000C Bytes, ...) -- CPU is running -- CPU_ReadMem(12 bytes @ 0x40012C34) -- Data:  40 06 00 00 00 00 00 00 00 00 00 00  returns 0x00 (0002ms, 0718ms total)
T064C 007:663 JLINK_ReadMem (0x40012C40, 0x0004 Bytes, ...) -- CPU is running -- CPU_ReadMem(4 bytes @ 0x40012C40) -- Data:  00 00 00 00  returns 0x00 (0002ms, 0720ms total)
T064C 007:665 JLINK_ReadMem (0x40012C44, 0x0004 Bytes, ...) -- CPU is running -- CPU_ReadMem(4 bytes @ 0x40012C44) -- Data:  00 00 00 00  returns 0x00 (0002ms, 0722ms total)
T064C 007:667 JLINK_ReadMem (0x40012C48, 0x0004 Bytes, ...) -- CPU is running -- CPU_ReadMem(4 bytes @ 0x40012C48) -- Data:  00 00 00 00  returns 0x00 (0002ms, 0724ms total)
T064C 007:669 JLINK_ReadMem (0x40012C4C, 0x0004 Bytes, ...) -- CPU is running -- CPU_ReadMem(4 bytes @ 0x40012C4C) -- Data:  11 00 00 00  returns 0x00 (0002ms, 0726ms total)
T064C 007:671 JLINK_ReadMem (0x40012C00, 0x0004 Bytes, ...) -- CPU is running -- CPU_ReadMem(4 bytes @ 0x40012C00) -- Data:  11 00 00 00  returns 0x00 (0002ms, 0728ms total)
T064C 007:673 JLINK_ReadMem (0x40012C00, 0x0004 Bytes, ...) -- CPU is running -- CPU_ReadMem(4 bytes @ 0x40012C00) -- Data:  01 00 00 00  returns 0x00 (0002ms, 0730ms total)
T064C 007:675 JLINK_ReadMem (0x40012C00, 0x0004 Bytes, ...) -- CPU is running -- CPU_ReadMem(4 bytes @ 0x40012C00) -- Data:  01 00 00 00  returns 0x00 (0002ms, 0732ms total)
T064C 007:677 JLINK_ReadMem (0x40012C00, 0x0004 Bytes, ...) -- CPU is running -- CPU_ReadMem(4 bytes @ 0x40012C00) -- Data:  01 00 00 00  returns 0x00 (0002ms, 0734ms total)
T064C 007:679 JLINK_ReadMem (0x40012C00, 0x0004 Bytes, ...) -- CPU is running -- CPU_ReadMem(4 bytes @ 0x40012C00) -- Data:  01 00 00 00  returns 0x00 (0002ms, 0736ms total)
T064C 007:681 JLINK_ReadMem (0x40012C00, 0x0004 Bytes, ...) -- CPU is running -- CPU_ReadMem(4 bytes @ 0x40012C00) -- Data:  11 00 00 00  returns 0x00 (0002ms, 0738ms total)
T064C 007:683 JLINK_ReadMem (0x40012C00, 0x0004 Bytes, ...) -- CPU is running -- CPU_ReadMem(4 bytes @ 0x40012C00) -- Data:  11 00 00 00  returns 0x00 (0002ms, 0740ms total)
T064C 007:685 JLINK_ReadMem (0x40012C00, 0x0004 Bytes, ...) -- CPU is running -- CPU_ReadMem(4 bytes @ 0x40012C00) -- Data:  11 00 00 00  returns 0x00 (0002ms, 0742ms total)
T064C 007:687 JLINK_ReadMem (0x40012C00, 0x0004 Bytes, ...) -- CPU is running -- CPU_ReadMem(4 bytes @ 0x40012C00) -- Data:  11 00 00 00  returns 0x00 (0002ms, 0744ms total)
T0FCC 007:698 JLINK_IsHalted()  returns FALSE (0003ms, 0747ms total)
T0FCC 007:801 JLINK_IsHalted()  returns FALSE (0002ms, 0746ms total)
T0FCC 007:903 JLINK_IsHalted()  returns FALSE (0004ms, 0748ms total)
T0FCC 008:007 JLINK_IsHalted()  returns FALSE (0002ms, 0746ms total)
T0FCC 008:109 JLINK_IsHalted()  returns FALSE (0002ms, 0746ms total)
T0FCC 008:211 JLINK_ReadMemU32(0xE0001004, 0x0001 Items, ...) -- CPU is running -- CPU_ReadMem(4 bytes @ 0xE0001004) -- Data:  00 00 00 00  returns 0x01 (0002ms, 0746ms total)
T064C 008:217 JLINK_ReadMem (0x20000020, 0x0004 Bytes, ...) -- CPU is running -- CPU_ReadMem(4 bytes @ 0x20000020) -- Data:  00 00 00 00  returns 0x00 (0003ms, 0749ms total)
T064C 008:220 JLINK_ReadMem (0x20000024, 0x0004 Bytes, ...) -- CPU is running -- CPU_ReadMem(4 bytes @ 0x20000024) -- Data:  0D 9A AD 3F  returns 0x00 (0002ms, 0751ms total)
T064C 008:223 JLINK_ReadMem (0x20000028, 0x0004 Bytes, ...) -- CPU is running -- CPU_ReadMem(4 bytes @ 0x20000028) -- Data:  58 85 D5 3F  returns 0x00 (0002ms, 0753ms total)
T064C 008:225 JLINK_ReadMem (0x2000002C, 0x0004 Bytes, ...) -- CPU is running -- CPU_ReadMem(4 bytes @ 0x2000002C) -- Data:  92 27 B9 3F  returns 0x00 (0002ms, 0755ms total)
T064C 008:227 JLINK_ReadMem (0x20000044, 0x0004 Bytes, ...) -- CPU is running -- CPU_ReadMem(4 bytes @ 0x20000044) -- Data:  00 00 00 00  returns 0x00 (0002ms, 0757ms total)
T064C 008:229 JLINK_ReadMem (0x40012C00, 0x002C Bytes, ...) -- CPU is running -- CPU_ReadMem(44 bytes @ 0x40012C00) -- Data:  11 00 00 00 00 00 00 00 03 00 00 00 01 00 00 00 ...  returns 0x00 (0002ms, 0759ms total)
T064C 008:231 JLINK_ReadMem (0x40012C2C, 0x0004 Bytes, ...) -- CPU is running -- CPU_ReadMem(4 bytes @ 0x40012C2C) -- Data:  40 06 00 00  returns 0x00 (0002ms, 0761ms total)
T064C 008:233 JLINK_ReadMem (0x40012C30, 0x0004 Bytes, ...) -- CPU is running -- CPU_ReadMem(4 bytes @ 0x40012C30) -- Data:  00 00 00 00  returns 0x00 (0002ms, 0763ms total)
T064C 008:235 JLINK_ReadMem (0x40012C34, 0x000C Bytes, ...) -- CPU is running -- CPU_ReadMem(12 bytes @ 0x40012C34) -- Data:  40 06 00 00 00 00 00 00 00 00 00 00  returns 0x00 (0002ms, 0765ms total)
T064C 008:237 JLINK_ReadMem (0x40012C40, 0x0004 Bytes, ...) -- CPU is running -- CPU_ReadMem(4 bytes @ 0x40012C40) -- Data:  00 00 00 00  returns 0x00 (0002ms, 0767ms total)
T064C 008:239 JLINK_ReadMem (0x40012C44, 0x0004 Bytes, ...) -- CPU is running -- CPU_ReadMem(4 bytes @ 0x40012C44) -- Data:  00 00 00 00  returns 0x00 (0002ms, 0769ms total)
T064C 008:241 JLINK_ReadMem (0x40012C48, 0x0004 Bytes, ...) -- CPU is running -- CPU_ReadMem(4 bytes @ 0x40012C48) -- Data:  00 00 00 00  returns 0x00 (0002ms, 0771ms total)
T064C 008:243 JLINK_ReadMem (0x40012C4C, 0x0004 Bytes, ...) -- CPU is running -- CPU_ReadMem(4 bytes @ 0x40012C4C) -- Data:  11 00 00 00  returns 0x00 (0002ms, 0773ms total)
